
**** 11/20/17 16:58:15 ********* PSpice 9.2 (Mar 2000) ******** ID# 0 ********

 ** Profile: "SCHEMATIC1-asd"  [ e:\1. engineering\2. bio medical engineering\4. semester 4\2. my notes\4. electronics - iii (4)\buck


 ****     CIRCUIT DESCRIPTION


******************************************************************************




** Creating circuit file "buvky-schematic1-asd.sim.cir" 
** WARNING: THIS AUTOMATICALLY GENERATED FILE MAY BE OVERWRITTEN BY SUBSEQUENT SIMULATIONS

*Libraries: 
* Local Libraries :
* From [PSPICE NETLIST] section of C:\Program Files\Orcad\PSpice\PSpice.ini file:
.lib "nom.lib" 

*Analysis directives: 
.TRAN  0 3200us 3000us 
.PROBE V(*) I(*) W(*) D(*) NOISE(*) 
.INC ".\buvky-SCHEMATIC1.net" 



**** INCLUDING buvky-SCHEMATIC1.net ****
* source BUVKY
R_R1         0 N00744  10  
L_L1         N00712 N00744  125uH  
V_V2         N00627 0 10V
C_C1         0 N00744  4uF  
M_M3         N00627 N00659 N00712 N00712 IRF044
D_D3         0 N00712 D1N5820 
V_V1         N00659 0  
+PULSE 0V 15V 0 1ns 1ns 10us 20us

**** RESUMING buvky-schematic1-asd.sim.cir ****
.END

**** 11/20/17 16:58:15 ********* PSpice 9.2 (Mar 2000) ******** ID# 0 ********

 ** Profile: "SCHEMATIC1-asd"  [ e:\1. engineering\2. bio medical engineering\4. semester 4\2. my notes\4. electronics - iii (4)\buck


 ****     Diode MODEL PARAMETERS


******************************************************************************




               D1N5820         
          IS    8.425000E-06 
         ISR   58.320000E-06 
         IKF    2.37         
          RS     .03463      
         CJO    1.288000E-09 
          VJ     .75         
           M     .5324       
         XTI    0            


**** 11/20/17 16:58:15 ********* PSpice 9.2 (Mar 2000) ******** ID# 0 ********

 ** Profile: "SCHEMATIC1-asd"  [ e:\1. engineering\2. bio medical engineering\4. semester 4\2. my notes\4. electronics - iii (4)\buck


 ****     MOSFET MODEL PARAMETERS


******************************************************************************




               IRF044          
               NMOS            
       LEVEL    3            
           L    2.000000E-06 
           W    1.3          
         VTO    3.441        
          KP   21.210000E-06 
       GAMMA    0            
         PHI     .6          
      LAMBDA    0            
          RD  479.000000E-06 
          RS     .01008      
          RG    7.817        
         RDS  266.700000E+03 
          IS  228.700000E-15 
          JS    0            
          PB     .8          
        PBSW     .8          
         CBD    5.111000E-09 
          CJ    0            
        CJSW    0            
          TT  103.000000E-09 
        CGSO  830.700000E-12 
        CGDO    1.012000E-09 
        CGBO    0            
         TOX  100.000000E-09 
          XJ    0            
       UCRIT   10.000000E+03 
       DELTA    0            
         ETA    0            
      DIOMOD    1            
         VFB    0            
        LETA    0            
        WETA    0            
          U0    0            
        TEMP    0            
         VDD    0            
       XPART    0            


**** 11/20/17 16:58:15 ********* PSpice 9.2 (Mar 2000) ******** ID# 0 ********

 ** Profile: "SCHEMATIC1-asd"  [ e:\1. engineering\2. bio medical engineering\4. semester 4\2. my notes\4. electronics - iii (4)\buck


 ****     INITIAL TRANSIENT SOLUTION       TEMPERATURE =   27.000 DEG C


******************************************************************************



 NODE   VOLTAGE     NODE   VOLTAGE     NODE   VOLTAGE     NODE   VOLTAGE


(N00627)   10.0000 (N00659)    0.0000 (N00712) 369.6E-06 (N00744) 369.6E-06 




    VOLTAGE SOURCE CURRENTS
    NAME         CURRENT

    V_V2        -3.749E-05
    V_V1         0.000E+00

    TOTAL POWER DISSIPATION   3.75E-04  WATTS



          JOB CONCLUDED

          TOTAL JOB TIME             .36
